<Qucs Dataset 0.0.19>
<indep time 201>
  +0.00000000000000000000e+000
  +5.00000000000000023961e-005
  +1.00000000000000004792e-004
  +1.50000000000000013965e-004
  +2.00000000000000009584e-004
  +2.50000000000000005204e-004
  +3.00000000000000027929e-004
  +3.49999999999999996444e-004
  +4.00000000000000019169e-004
  +4.49999999999999987683e-004
  +5.00000000000000010408e-004
  +5.50000000000000033133e-004
  +6.00000000000000055858e-004
  +6.49999999999999970163e-004
  +6.99999999999999992888e-004
  +7.50000000000000015613e-004
  +8.00000000000000038337e-004
  +8.50000000000000061062e-004
  +8.99999999999999975367e-004
  +9.49999999999999998092e-004
  +1.00000000000000002082e-003
  +1.04999999999999993512e-003
  +1.10000000000000006627e-003
  +1.14999999999999998057e-003
  +1.20000000000000011172e-003
  +1.25000000000000002602e-003
  +1.29999999999999994033e-003
  +1.35000000000000007147e-003
  +1.39999999999999998578e-003
  +1.45000000000000011692e-003
  +1.50000000000000003123e-003
  +1.54999999999999994553e-003
  +1.60000000000000007667e-003
  +1.64999999999999999098e-003
  +1.70000000000000012212e-003
  +1.75000000000000003643e-003
  +1.79999999999999995073e-003
  +1.85000000000000008188e-003
  +1.89999999999999999618e-003
  +1.95000000000000012733e-003
  +2.00000000000000004163e-003
  +2.05000000000000017278e-003
  +2.09999999999999987024e-003
  +2.15000000000000000139e-003
  +2.20000000000000013253e-003
  +2.25000000000000026368e-003
  +2.29999999999999996114e-003
  +2.35000000000000009229e-003
  +2.40000000000000022343e-003
  +2.44999999999999992090e-003
  +2.50000000000000005204e-003
  +2.55000000000000018319e-003
  +2.59999999999999988065e-003
  +2.65000000000000001180e-003
  +2.70000000000000014294e-003
  +2.74999999999999984041e-003
  +2.79999999999999997155e-003
  +2.85000000000000010270e-003
  +2.90000000000000023384e-003
  +2.94999999999999993130e-003
  +3.00000000000000006245e-003
  +3.05000000000000019360e-003
  +3.09999999999999989106e-003
  +3.15000000000000002220e-003
  +3.20000000000000015335e-003
  +3.25000000000000028449e-003
  +3.29999999999999998196e-003
  +3.35000000000000011310e-003
  +3.40000000000000024425e-003
  +3.44999999999999994171e-003
  +3.50000000000000007286e-003
  +3.55000000000000020400e-003
  +3.59999999999999990147e-003
  +3.65000000000000003261e-003
  +3.70000000000000016376e-003
  +3.74999999999999986122e-003
  +3.79999999999999999237e-003
  +3.85000000000000012351e-003
  +3.90000000000000025466e-003
  +3.95000000000000038580e-003
  +4.00000000000000008327e-003
  +4.04999999999999978073e-003
  +4.10000000000000034556e-003
  +4.15000000000000004302e-003
  +4.19999999999999974049e-003
  +4.25000000000000030531e-003
  +4.30000000000000000278e-003
  +4.34999999999999970024e-003
  +4.40000000000000026507e-003
  +4.44999999999999996253e-003
  +4.50000000000000052736e-003
  +4.55000000000000022482e-003
  +4.59999999999999992228e-003
  +4.65000000000000048711e-003
  +4.70000000000000018457e-003
  +4.74999999999999988204e-003
  +4.80000000000000044686e-003
  +4.85000000000000014433e-003
  +4.89999999999999984179e-003
  +4.95000000000000040662e-003
  +5.00000000000000010408e-003
  +5.04999999999999980155e-003
  +5.10000000000000036637e-003
  +5.15000000000000006384e-003
  +5.19999999999999976130e-003
  +5.25000000000000032613e-003
  +5.30000000000000002359e-003
  +5.34999999999999972106e-003
  +5.40000000000000028588e-003
  +5.44999999999999998335e-003
  +5.49999999999999968081e-003
  +5.55000000000000024564e-003
  +5.59999999999999994310e-003
  +5.65000000000000050793e-003
  +5.70000000000000020539e-003
  +5.74999999999999990286e-003
  +5.80000000000000046768e-003
  +5.85000000000000016515e-003
  +5.89999999999999986261e-003
  +5.95000000000000042744e-003
  +6.00000000000000012490e-003
  +6.04999999999999982236e-003
  +6.10000000000000038719e-003
  +6.15000000000000008465e-003
  +6.19999999999999978212e-003
  +6.25000000000000034694e-003
  +6.30000000000000004441e-003
  +6.34999999999999974187e-003
  +6.40000000000000030670e-003
  +6.45000000000000000416e-003
  +6.50000000000000056899e-003
  +6.55000000000000026645e-003
  +6.59999999999999996392e-003
  +6.65000000000000052874e-003
  +6.70000000000000022621e-003
  +6.74999999999999992367e-003
  +6.80000000000000048850e-003
  +6.85000000000000018596e-003
  +6.89999999999999988343e-003
  +6.95000000000000044825e-003
  +7.00000000000000014572e-003
  +7.04999999999999984318e-003
  +7.10000000000000040801e-003
  +7.15000000000000010547e-003
  +7.19999999999999980294e-003
  +7.25000000000000036776e-003
  +7.30000000000000006523e-003
  +7.34999999999999976269e-003
  +7.40000000000000032752e-003
  +7.45000000000000002498e-003
  +7.49999999999999972244e-003
  +7.55000000000000028727e-003
  +7.59999999999999998473e-003
  +7.65000000000000054956e-003
  +7.70000000000000024702e-003
  +7.74999999999999994449e-003
  +7.80000000000000050931e-003
  +7.84999999999999933942e-003
  +7.90000000000000077161e-003
  +7.95000000000000046907e-003
  +8.00000000000000016653e-003
  +8.04999999999999986400e-003
  +8.09999999999999956146e-003
  +8.15000000000000099365e-003
  +8.20000000000000069111e-003
  +8.25000000000000038858e-003
  +8.30000000000000008604e-003
  +8.34999999999999978351e-003
  +8.39999999999999948097e-003
  +8.45000000000000091316e-003
  +8.50000000000000061062e-003
  +8.55000000000000030809e-003
  +8.60000000000000000555e-003
  +8.64999999999999970302e-003
  +8.69999999999999940048e-003
  +8.75000000000000083267e-003
  +8.80000000000000053013e-003
  +8.85000000000000022760e-003
  +8.89999999999999992506e-003
  +8.94999999999999962252e-003
  +9.00000000000000105471e-003
  +9.05000000000000075218e-003
  +9.10000000000000044964e-003
  +9.15000000000000014710e-003
  +9.19999999999999984457e-003
  +9.24999999999999954203e-003
  +9.30000000000000097422e-003
  +9.35000000000000067168e-003
  +9.40000000000000036915e-003
  +9.45000000000000006661e-003
  +9.49999999999999976408e-003
  +9.54999999999999946154e-003
  +9.60000000000000089373e-003
  +9.65000000000000059119e-003
  +9.70000000000000028866e-003
  +9.74999999999999998612e-003
  +9.79999999999999968359e-003
  +9.84999999999999938105e-003
  +9.90000000000000081324e-003
  +9.95000000000000051070e-003
  +1.00000000000000002082e-002
</indep>
<dep V1.It time>
  -4.58015267175572227121e-001
  -4.58015267175572227121e-001
  -4.58015267175572282632e-001
  -4.58015267175572282632e-001
  -4.58015267175572282632e-001
  -4.58015267175572282632e-001
  -4.58015267175572282632e-001
  -4.58015267175572338143e-001
  -4.58015267175572338143e-001
  -4.58015267175572338143e-001
  -4.58015267175572338143e-001
  -4.58015267175572338143e-001
  -4.58015267175572338143e-001
  -4.58015267175572393654e-001
  -4.58015267175572393654e-001
  -4.58015267175572393654e-001
  -4.58015267175572393654e-001
  -4.58015267175572393654e-001
  -4.58015267175572393654e-001
  -4.58015267175572393654e-001
  -4.33984614856646466752e-001
  -2.47837352504931806485e-011
  -2.47455106288308584017e-011
  -2.47091503123633921750e-011
  -2.46745633745175749350e-011
  -2.46416633234242222832e-011
  -2.46103678856271345202e-011
  -2.45805988003411544533e-011
  -2.45522816237446788978e-011
  -2.45253455428173465411e-011
  -2.44997231982572511807e-011
  -2.44753505160349480719e-011
  -2.44521665471629244144e-011
  -2.44301133152799362250e-011
  -2.44091356716689782678e-011
  -2.43891811573463912954e-011
  -2.43701998718772110587e-011
  -2.43521443485886947319e-011
  -2.43349694358699805595e-011
  -2.43186321842610489005e-011
  -2.43030917390486123526e-011
  -2.42883092381003662107e-011
  -2.42742477146821070824e-011
  -2.42608720050146739602e-011
  -2.42481486603395793950e-011
  -2.42360458632733815059e-011
  -2.42245333482416849220e-011
  -2.42135823257937206275e-011
  -2.42031654106083226877e-011
  -2.41932565530111994335e-011
  -2.41838309738322791808e-011
  -2.41748651024402114450e-011
  -2.41663365177990856157e-011
  -2.41582238923999286079e-011
  -2.41505069389268163826e-011
  -2.41431663595242035365e-011
  -2.41361837975385956741e-011
  -2.41295417916138995891e-011
  -2.41232237320256508643e-011
  -2.41172138191449342810e-011
  -2.41114970239280889364e-011
  -2.41060590503334630745e-011
  -2.41008862995711656132e-011
  -2.40959658360964465467e-011
  -2.40912853552616584870e-011
  -2.40868331525459295153e-011
  -2.40825980942855387647e-011
  -2.40785695898318829570e-011
  -2.40747375650673342310e-011
  -2.40710924372128051213e-011
  -2.40676250908640063264e-011
  -2.40643268551964719083e-011
  -2.40611894822823540092e-011
  -2.40582051264647453635e-011
  -2.40553663247379826814e-011
  -2.40526659780848429050e-011
  -2.40500973337239515617e-011
  -2.40476539682230618117e-011
  -2.40453297714358984230e-011
  -2.40431189312224742656e-011
  -2.40410159189146157573e-011
  -2.40390154754903724019e-011
  -2.40371125984227206976e-011
  -2.40353025291697207614e-011
  -2.40335807412747768159e-011
  -2.40319429290472747368e-011
  -2.40303849967953303461e-011
  -2.40289030485836229120e-011
  -2.40274933784908198890e-011
  -2.40261524613421361403e-011
  -2.40248769438938892042e-011
  -2.40236636364480333828e-011
  -2.40225095048756280139e-011
  -2.40214116630293843627e-011
  -2.40203673655262401268e-011
  -2.40193740008819542226e-011
  -2.40184290849805513925e-011
  -2.40175302548622636589e-011
  -2.40166752628144686831e-011
  -2.40158619707507874772e-011
  -2.40150883448643892569e-011
  -2.40143524505419938971e-011
  -2.40136524475260027220e-011
  -2.40129865853125147099e-011
  -2.40123531987738608422e-011
  -2.40117507039945768999e-011
  -2.40111775943105007992e-011
  -2.40106324365410489116e-011
  -2.40101138674052428028e-011
  -2.40096205901125392680e-011
  -2.40091513711199398258e-011
  -2.40087050370472532689e-011
  -2.40082804717428146123e-011
  -2.40078766134923159815e-011
  -2.40074924523637668725e-011
  -2.40071270276819534143e-011
  -2.40067794256260506072e-011
  -2.40064487769444518699e-011
  -2.40061342547809933201e-011
  -2.40058350726072542741e-011
  -2.40055504822556574602e-011
  -2.40052797720485254130e-011
  -2.40050222650183916921e-011
  -2.40047773172150885172e-011
  -2.40045443160954232164e-011
  -2.40043226789913851353e-011
  -2.40041118516530508317e-011
  -2.40039113068625880293e-011
  -2.40037205431158201943e-011
  -2.40035390833681108668e-011
  -2.40033664738414302772e-011
  -2.40032022828895637118e-011
  -2.40030460999187118994e-011
  -2.40028975343606981463e-011
  -2.40027562146962909834e-011
  -2.40026217875261187800e-011
  -2.40024939166869403501e-011
  -2.40023722824109838811e-011
  -2.40022565805263185440e-011
  -2.40021465216961876030e-011
  -2.40020418306954774117e-011
  -2.40019422457224514440e-011
  -2.40018475177440659202e-011
  -2.40017574098732062033e-011
  -2.40016716967763026955e-011
  -2.40015901641098366647e-011
  -2.40015126079843272069e-011
  -2.40014388344544681032e-011
  -2.40013686590341285618e-011
  -2.40013019062349932314e-011
  -2.40012384091277331930e-011
  -2.40011780089245576311e-011
  -2.40011205545821283661e-011
  -2.40010659024238517379e-011
  -2.40010139157805817208e-011
  -2.40009644646488424657e-011
  -2.40009174253657463189e-011
  -2.40008726802997284400e-011
  -2.40008301175563968517e-011
  -2.40007896306987127487e-011
  -2.40007511184808257486e-011
  -2.40007144845948790761e-011
  -2.40006796374301836822e-011
  -2.40006464898441215269e-011
  -2.40006149589442222615e-011
  -2.40005849658808769370e-011
  -2.40005564356501588254e-011
  -2.40005292969062666787e-011
  -2.40005034817830895917e-011
  -2.40004789257245218857e-011
  -2.40004555673230045615e-011
  -2.40004333481659669733e-011
  -2.40004122126897615960e-011
  -2.40003921080407170694e-011
  -2.40003729839429476278e-011
  -2.40003547925726539584e-011
  -2.40003374884385115925e-011
  -2.40003210282679109527e-011
  -2.40003053708987582520e-011
  -2.40002904771765270498e-011
  -2.40002763098563504408e-011
  -2.40002628335098824564e-011
  -2.40002500144366992667e-011
  -2.40002378205800333865e-011
  -2.40002262214465953171e-011
  -2.40002151880303242959e-011
  -2.40002046927398548963e-011
  -2.40001947093295249950e-011
  -2.40001852128337247733e-011
  -2.40001761795044833543e-011
  -2.40001675867520701271e-011
  -2.40001594130885138202e-011
  -2.40001516380738616112e-011
  -2.40001442422650587187e-011
  -2.40001372071673386163e-011
  -2.40001305151879752360e-011
  -2.40001241495922711428e-011
  -2.40001180944617202906e-011
  -2.40001123346542064178e-011
  -2.40001068557661304530e-011
  -2.40001016440963796916e-011
</dep>
<dep iL.It time>
  +0.00000000000000000000e+000
  +0.00000000000000000000e+000
  +0.00000000000000000000e+000
  +0.00000000000000000000e+000
  +0.00000000000000000000e+000
  +0.00000000000000000000e+000
  +0.00000000000000000000e+000
  +0.00000000000000000000e+000
  +0.00000000000000000000e+000
  +0.00000000000000000000e+000
  +0.00000000000000000000e+000
  +0.00000000000000000000e+000
  +0.00000000000000000000e+000
  +0.00000000000000000000e+000
  +0.00000000000000000000e+000
  +0.00000000000000000000e+000
  +0.00000000000000000000e+000
  +0.00000000000000000000e+000
  +0.00000000000000000000e+000
  +0.00000000000000000000e+000
  +0.00000000000000000000e+000
  +0.00000000000000000000e+000
  +0.00000000000000000000e+000
  +0.00000000000000000000e+000
  +0.00000000000000000000e+000
  +0.00000000000000000000e+000
  +0.00000000000000000000e+000
  +0.00000000000000000000e+000
  +0.00000000000000000000e+000
  +0.00000000000000000000e+000
  +0.00000000000000000000e+000
  +0.00000000000000000000e+000
  +0.00000000000000000000e+000
  +0.00000000000000000000e+000
  +0.00000000000000000000e+000
  +0.00000000000000000000e+000
  +0.00000000000000000000e+000
  +0.00000000000000000000e+000
  +0.00000000000000000000e+000
  +0.00000000000000000000e+000
  +0.00000000000000000000e+000
  +0.00000000000000000000e+000
  +0.00000000000000000000e+000
  +0.00000000000000000000e+000
  +0.00000000000000000000e+000
  +0.00000000000000000000e+000
  +0.00000000000000000000e+000
  +0.00000000000000000000e+000
  +0.00000000000000000000e+000
  +0.00000000000000000000e+000
  +0.00000000000000000000e+000
  +0.00000000000000000000e+000
  +0.00000000000000000000e+000
  +0.00000000000000000000e+000
  +0.00000000000000000000e+000
  +0.00000000000000000000e+000
  +0.00000000000000000000e+000
  +0.00000000000000000000e+000
  +0.00000000000000000000e+000
  +0.00000000000000000000e+000
  +0.00000000000000000000e+000
  +0.00000000000000000000e+000
  +0.00000000000000000000e+000
  +0.00000000000000000000e+000
  +0.00000000000000000000e+000
  +0.00000000000000000000e+000
  +0.00000000000000000000e+000
  +0.00000000000000000000e+000
  +0.00000000000000000000e+000
  +0.00000000000000000000e+000
  +0.00000000000000000000e+000
  +0.00000000000000000000e+000
  +0.00000000000000000000e+000
  +0.00000000000000000000e+000
  +0.00000000000000000000e+000
  +0.00000000000000000000e+000
  +0.00000000000000000000e+000
  +0.00000000000000000000e+000
  +0.00000000000000000000e+000
  +0.00000000000000000000e+000
  +0.00000000000000000000e+000
  +0.00000000000000000000e+000
  +0.00000000000000000000e+000
  +0.00000000000000000000e+000
  +0.00000000000000000000e+000
  +0.00000000000000000000e+000
  +0.00000000000000000000e+000
  +0.00000000000000000000e+000
  +0.00000000000000000000e+000
  +0.00000000000000000000e+000
  +0.00000000000000000000e+000
  +0.00000000000000000000e+000
  +0.00000000000000000000e+000
  +0.00000000000000000000e+000
  +0.00000000000000000000e+000
  +0.00000000000000000000e+000
  +0.00000000000000000000e+000
  +0.00000000000000000000e+000
  +0.00000000000000000000e+000
  +0.00000000000000000000e+000
  +0.00000000000000000000e+000
  +0.00000000000000000000e+000
  +0.00000000000000000000e+000
  +0.00000000000000000000e+000
  +0.00000000000000000000e+000
  +0.00000000000000000000e+000
  +0.00000000000000000000e+000
  +0.00000000000000000000e+000
  +0.00000000000000000000e+000
  +0.00000000000000000000e+000
  +0.00000000000000000000e+000
  +0.00000000000000000000e+000
  +0.00000000000000000000e+000
  +0.00000000000000000000e+000
  +0.00000000000000000000e+000
  +0.00000000000000000000e+000
  +0.00000000000000000000e+000
  +0.00000000000000000000e+000
  +0.00000000000000000000e+000
  +0.00000000000000000000e+000
  +0.00000000000000000000e+000
  +0.00000000000000000000e+000
  +0.00000000000000000000e+000
  +0.00000000000000000000e+000
  +0.00000000000000000000e+000
  +0.00000000000000000000e+000
  +0.00000000000000000000e+000
  +0.00000000000000000000e+000
  +0.00000000000000000000e+000
  +0.00000000000000000000e+000
  +0.00000000000000000000e+000
  +0.00000000000000000000e+000
  +0.00000000000000000000e+000
  +0.00000000000000000000e+000
  +0.00000000000000000000e+000
  +0.00000000000000000000e+000
  +0.00000000000000000000e+000
  +0.00000000000000000000e+000
  +0.00000000000000000000e+000
  +0.00000000000000000000e+000
  +0.00000000000000000000e+000
  +0.00000000000000000000e+000
  +0.00000000000000000000e+000
  +0.00000000000000000000e+000
  +0.00000000000000000000e+000
  +0.00000000000000000000e+000
  +0.00000000000000000000e+000
  +0.00000000000000000000e+000
  +0.00000000000000000000e+000
  +0.00000000000000000000e+000
  +0.00000000000000000000e+000
  +0.00000000000000000000e+000
  +0.00000000000000000000e+000
  +0.00000000000000000000e+000
  +0.00000000000000000000e+000
  +0.00000000000000000000e+000
  +0.00000000000000000000e+000
  +0.00000000000000000000e+000
  +0.00000000000000000000e+000
  +0.00000000000000000000e+000
  +0.00000000000000000000e+000
  +0.00000000000000000000e+000
  +0.00000000000000000000e+000
  +0.00000000000000000000e+000
  +0.00000000000000000000e+000
  +0.00000000000000000000e+000
  +0.00000000000000000000e+000
  +0.00000000000000000000e+000
  +0.00000000000000000000e+000
  +0.00000000000000000000e+000
  +0.00000000000000000000e+000
  +0.00000000000000000000e+000
  +0.00000000000000000000e+000
  +0.00000000000000000000e+000
  +0.00000000000000000000e+000
  +0.00000000000000000000e+000
  +0.00000000000000000000e+000
  +0.00000000000000000000e+000
  +0.00000000000000000000e+000
  +0.00000000000000000000e+000
  +0.00000000000000000000e+000
  +0.00000000000000000000e+000
  +0.00000000000000000000e+000
  +0.00000000000000000000e+000
  +0.00000000000000000000e+000
  +0.00000000000000000000e+000
  +0.00000000000000000000e+000
  +0.00000000000000000000e+000
  +0.00000000000000000000e+000
  +0.00000000000000000000e+000
  +0.00000000000000000000e+000
  +0.00000000000000000000e+000
  +0.00000000000000000000e+000
  +0.00000000000000000000e+000
  +0.00000000000000000000e+000
  +0.00000000000000000000e+000
  +0.00000000000000000000e+000
  +0.00000000000000000000e+000
  +0.00000000000000000000e+000
  +0.00000000000000000000e+000
  +0.00000000000000000000e+000
</dep>
<dep _net1.Vt time>
  +1.09923664122138875499e+000
  +1.09923664122138786681e+000
  +1.09923664122138764476e+000
  +1.09923664122138697863e+000
  +1.09923664122138653454e+000
  +1.09923664122138609045e+000
  +1.09923664122138542432e+000
  +1.09923664122138475818e+000
  +1.09923664122138431409e+000
  +1.09923664122138387000e+000
  +1.09923664122138342591e+000
  +1.09923664122138320387e+000
  +1.09923664122138253774e+000
  +1.09923664122138209365e+000
  +1.09923664122138187160e+000
  +1.09923664122138187160e+000
  +1.09923664122138187160e+000
  +1.09923664122138187160e+000
  +1.09923664122138187160e+000
  +1.09923664122138187160e+000
  +2.30076925716767677343e+000
  +2.39999999987608134688e+001
  +2.39999999987627248288e+001
  +2.39999999987645438182e+001
  +2.39999999987662704370e+001
  +2.39999999987679153435e+001
  +2.39999999987694820902e+001
  +2.39999999987709706772e+001
  +2.39999999987723846573e+001
  +2.39999999987737311358e+001
  +2.39999999987750136654e+001
  +2.39999999987762322462e+001
  +2.39999999987773904309e+001
  +2.39999999987784953248e+001
  +2.39999999987795433753e+001
  +2.39999999987805416879e+001
  +2.39999999987814902624e+001
  +2.39999999987823926517e+001
